T11EC 000:006.146   SEGGER J-Link V7.52d Log File
T11EC 000:006.278   DLL Compiled: Aug 17 2021 17:10:23
T11EC 000:006.283   Logging started @ 2026-04-03 09:21
T11EC 000:006.286 - 6.288ms
T11EC 000:006.294 JLINK_SetWarnOutHandler(...)
T11EC 000:006.299 - 0.007ms
T11EC 000:006.304 JLINK_OpenEx(...)
T11EC 000:008.122   Firmware: J-Link V12 compiled Jul 27 2020 14:00:11
T11EC 000:008.495   Firmware: J-Link V12 compiled Jul 27 2020 14:00:11
T11EC 000:011.014   Hardware: V10.10
T11EC 000:011.038   S/N: 4294967295
T11EC 000:011.044   OEM: SEGGER
T11EC 000:011.049   Feature(s): GDB, RDI, FlashBP, FlashDL, JFlash
T11EC 000:012.111   TELNET listener socket opened on port 19021
T11EC 000:012.224   WEBSRV Starting webserver
T11EC 000:012.343   WEBSRV Webserver running on local port 19080
T11EC 000:017.858 - 11.567ms returns "O.K."
T11EC 000:017.892 JLINK_GetEmuCaps()
T11EC 000:017.897 - 0.007ms returns 0xB9FF7BBF
T11EC 000:017.931 JLINK_TIF_GetAvailable(...)
T11EC 000:018.058 - 0.129ms
T11EC 000:018.068 JLINK_SetErrorOutHandler(...)
T11EC 000:018.073 - 0.006ms
T11EC 000:018.087 JLINK_ExecCommand("ProjectFile = "D:\MicroChip\PY32\PY32F002B_Firmware_V1.2.1\Projects\PY32F002B-STK\Example\ADC\Hote\MDK-ARM\JLinkSettings.ini"", ...). 
T11EC 000:028.126   Ref file found at: C:\Keil_v5\ARM\Segger\JLinkDevices.ref
T11EC 000:028.224   XML referenced by ref file: C:\Program Files (x86)\SEGGER\JLink\JLinkDevices.xml
T11EC 000:029.584   C:\Program Files (x86)\SEGGER\JLink\JLinkDevices.xml evaluated successfully.
T11EC 000:083.406   Device "CORTEX-M0+" selected.
T11EC 000:083.880 - 65.798ms returns 0x00
T11EC 000:085.289 JLINK_ExecCommand("Device = PY32F002Bx5", ...). 
T11EC 000:087.832   Device "PY32F002BX5" selected.
T11EC 000:088.210 - 2.913ms returns 0x00
T11EC 000:088.222 JLINK_ExecCommand("DisableConnectionTimeout", ...). 
T11EC 000:088.230 - 0.003ms returns 0x01
T11EC 000:088.235 JLINK_GetHardwareVersion()
T11EC 000:088.244 - 0.010ms returns 101000
T11EC 000:088.252 JLINK_GetDLLVersion()
T11EC 000:088.256 - 0.006ms returns 75204
T11EC 000:088.261 JLINK_GetOEMString(...)
T11EC 000:088.266 JLINK_GetFirmwareString(...)
T11EC 000:088.270 - 0.005ms
T11EC 000:092.791 JLINK_GetDLLVersion()
T11EC 000:092.806 - 0.017ms returns 75204
T11EC 000:092.812 JLINK_GetCompileDateTime()
T11EC 000:092.815 - 0.005ms
T11EC 000:094.015 JLINK_GetFirmwareString(...)
T11EC 000:094.028 - 0.015ms
T11EC 000:095.117 JLINK_GetHardwareVersion()
T11EC 000:095.131 - 0.016ms returns 101000
T11EC 000:096.171 JLINK_GetSN()
T11EC 000:096.184 - 0.015ms returns -1
T11EC 000:096.189 JLINK_GetOEMString(...)
T11EC 000:098.559 JLINK_TIF_Select(JLINKARM_TIF_SWD)
T11EC 000:099.250 - 0.695ms returns 0x00
T11EC 000:099.260 JLINK_HasError()
T11EC 000:099.273 JLINK_SetSpeed(5000)
T11EC 000:099.433 - 0.162ms
T11EC 000:099.440 JLINK_GetId()
T11EC 000:101.319   Found SW-DP with ID 0x0BC11477
T11EC 000:102.994   Old FW that does not support reading DPIDR via DAP jobs
T11EC 000:105.112   DPv0 detected
T11EC 000:106.504   Scanning AP map to find all available APs
T11EC 000:109.328   AP[1]: Stopped AP scan as end of AP map has been reached
T11EC 000:110.729   AP[0]: AHB-AP (IDR: 0x04770031)
T11EC 000:112.017   Iterating through AP map to find AHB-AP to use
T11EC 000:113.795   AP[0]: Core found
T11EC 000:114.973   AP[0]: AHB-AP ROM base: 0xE00FF000
T11EC 000:116.381   CPUID register: 0x410CC601. Implementer code: 0x41 (ARM)
T11EC 000:117.484   Found Cortex-M0 r0p1, Little endian.
T11EC 000:218.970   -- Max. mem block: 0x000034E0
T11EC 000:219.221   CPU_ReadMem(4 bytes @ 0xE000EDF0)
T11EC 000:219.553   CPU_WriteMem(4 bytes @ 0xE000EDF0)
T11EC 000:219.834   CPU_ReadMem(4 bytes @ 0xE0002000)
T11EC 000:225.042   FPUnit: 4 code (BP) slots and 0 literal slots
T11EC 000:225.097   CPU_ReadMem(4 bytes @ 0xE000EDFC)
T11EC 000:225.415   CPU_WriteMem(4 bytes @ 0xE000EDFC)
T11EC 000:225.750   CPU_ReadMem(4 bytes @ 0xE0001000)
T11EC 000:225.990   CPU_WriteMem(4 bytes @ 0xE0001000)
T11EC 000:229.427   CoreSight components:
T11EC 000:231.313   ROMTbl[0] @ E00FF000
T11EC 000:231.416   CPU_ReadMem(64 bytes @ 0xE00FF000)
T11EC 000:231.854   CPU_ReadMem(32 bytes @ 0xE000EFE0)
T11EC 000:233.410   ROMTbl[0][0]: E000E000, CID: B105E00D, PID: 000BB008 SCS
T11EC 000:233.427   CPU_ReadMem(32 bytes @ 0xE0001FE0)
T11EC 000:235.065   ROMTbl[0][1]: E0001000, CID: B105E00D, PID: 000BB00A DWT
T11EC 000:235.080   CPU_ReadMem(32 bytes @ 0xE0002FE0)
T11EC 000:236.401   ROMTbl[0][2]: E0002000, CID: B105E00D, PID: 000BB00B FPB
T11EC 000:236.578 - 137.141ms returns 0x0BC11477
T11EC 000:236.597 JLINK_GetDLLVersion()
T11EC 000:236.601 - 0.006ms returns 75204
T11EC 000:236.608 JLINK_CORE_GetFound()
T11EC 000:236.612 - 0.005ms returns 0x60000FF
T11EC 000:236.645 JLINK_GetDebugInfo(0x100 = JLINKARM_ROM_TABLE_ADDR_INDEX)
T11EC 000:236.653   Value=0xE00FF000
T11EC 000:236.659 - 0.015ms returns 0
T11EC 000:237.911 JLINK_GetDebugInfo(0x100 = JLINKARM_ROM_TABLE_ADDR_INDEX)
T11EC 000:237.925   Value=0xE00FF000
T11EC 000:237.931 - 0.021ms returns 0
T11EC 000:237.941 JLINK_GetDebugInfo(0x101 = JLINKARM_DEBUG_INFO_ETM_ADDR_INDEX)
T11EC 000:237.945   Value=0x00000000
T11EC 000:237.950 - 0.011ms returns 0
T11EC 000:237.955 JLINK_ReadMemEx(0xE0041FF0, 0x10 Bytes, Flags = 0x02000004)
T11EC 000:237.980   CPU_ReadMem(16 bytes @ 0xE0041FF0)
T11EC 000:238.230   Data:  00 00 00 00 00 00 00 00 00 00 00 00 00 00 00 00
T11EC 000:238.236 - 0.283ms returns 16 (0x10)
T11EC 000:238.242 JLINK_GetDebugInfo(0x102 = JLINKARM_DEBUG_INFO_MTB_ADDR_INDEX)
T11EC 000:238.247   Value=0x00000000
T11EC 000:238.252 - 0.011ms returns 0
T11EC 000:238.257 JLINK_GetDebugInfo(0x103 = JLINKARM_DEBUG_INFO_TPIU_ADDR_INDEX)
T11EC 000:238.261   Value=0x00000000
T11EC 000:238.266 - 0.010ms returns 0
T11EC 000:238.270 JLINK_ReadMemEx(0xE0040FF0, 0x10 Bytes, Flags = 0x02000004)
T11EC 000:238.278   CPU_ReadMem(16 bytes @ 0xE0040FF0)
T11EC 000:238.538   Data:  00 00 00 00 00 00 00 00 00 00 00 00 00 00 00 00
T11EC 000:238.544 - 0.275ms returns 16 (0x10)
T11EC 000:238.549 JLINK_GetDebugInfo(0x104 = JLINKARM_DEBUG_INFO_ITM_ADDR_INDEX)
T11EC 000:238.553   Value=0xE0000000
T11EC 000:238.558 - 0.010ms returns 0
T11EC 000:238.562 JLINK_GetDebugInfo(0x105 = JLINKARM_DEBUG_INFO_DWT_ADDR_INDEX)
T11EC 000:238.566   Value=0xE0001000
T11EC 000:238.571 - 0.010ms returns 0
T11EC 000:238.576 JLINK_GetDebugInfo(0x106 = JLINKARM_DEBUG_INFO_FPB_ADDR_INDEX)
T11EC 000:238.579   Value=0xE0002000
T11EC 000:238.585 - 0.010ms returns 0
T11EC 000:238.589 JLINK_GetDebugInfo(0x107 = JLINKARM_DEBUG_INFO_NVIC_ADDR_INDEX)
T11EC 000:238.593   Value=0xE000E000
T11EC 000:238.598 - 0.010ms returns 0
T11EC 000:238.602 JLINK_GetDebugInfo(0x10C = JLINKARM_DEBUG_INFO_DBG_ADDR_INDEX)
T11EC 000:238.606   Value=0xE000EDF0
T11EC 000:238.611 - 0.011ms returns 0
T11EC 000:238.616 JLINK_GetDebugInfo(0x01 = Unknown)
T11EC 000:238.620   Value=0x00000000
T11EC 000:238.625 - 0.010ms returns 0
T11EC 000:238.629 JLINK_ReadMemU32(0xE000ED00, 0x1 Items)
T11EC 000:238.635   CPU_ReadMem(4 bytes @ 0xE000ED00)
T11EC 000:238.847   Data:  01 C6 0C 41
T11EC 000:238.854   Debug reg: CPUID
T11EC 000:238.859 - 0.231ms returns 1 (0x1)
T11EC 000:238.864 JLINK_GetDebugInfo(0x10F = JLINKARM_DEBUG_INFO_HAS_CORTEX_M_SECURITY_EXT_INDEX)
T11EC 000:238.868   Value=0x00000000
T11EC 000:238.873 - 0.010ms returns 0
T11EC 000:238.878 JLINK_HasError()
T11EC 000:238.883 JLINK_SetResetType(JLINKARM_CM3_RESET_TYPE_NORMAL)
T11EC 000:238.887 - 0.006ms returns JLINKARM_CM3_RESET_TYPE_NORMAL
T11EC 000:238.892 JLINK_Reset()
T11EC 000:238.905   CPU is running
T11EC 000:238.957   CPU_WriteMem(4 bytes @ 0xE000EDF0)
T11EC 000:239.186   CPU is running
T11EC 000:239.194   CPU_WriteMem(4 bytes @ 0xE000EDFC)
T11EC 000:240.565   Reset: Halt core after reset via DEMCR.VC_CORERESET.
T11EC 000:242.076   Reset: Reset device via AIRCR.SYSRESETREQ.
T11EC 000:242.093   CPU is running
T11EC 000:242.100   CPU_WriteMem(4 bytes @ 0xE000ED0C)
T11EC 000:294.812   CPU_ReadMem(4 bytes @ 0xE000EDF0)
T11EC 000:295.111   CPU_ReadMem(4 bytes @ 0xE000EDF0)
T11EC 000:295.359   CPU is running
T11EC 000:295.388   CPU_WriteMem(4 bytes @ 0xE000EDF0)
T11EC 000:295.629   CPU is running
T11EC 000:295.643   CPU_WriteMem(4 bytes @ 0xE000EDFC)
T11EC 000:301.356   CPU_ReadMem(4 bytes @ 0xE000EDF0)
T11EC 000:303.405   CPU_WriteMem(4 bytes @ 0xE0002000)
T11EC 000:303.705   CPU_ReadMem(4 bytes @ 0xE000EDFC)
T11EC 000:303.952   CPU_ReadMem(4 bytes @ 0xE0001000)
T11EC 000:304.179   CPU_WriteMem(4 bytes @ 0xE0001000)
T11EC 000:304.440 - 65.555ms
T11EC 000:304.551 JLINK_Halt()
T11EC 000:304.563 - 0.016ms returns 0x00
T11EC 000:304.576 JLINK_ReadMemU32(0xE000EDF0, 0x1 Items)
T11EC 000:304.600   CPU_ReadMem(4 bytes @ 0xE000EDF0)
T11EC 000:304.859   Data:  03 00 03 00
T11EC 000:304.874   Debug reg: DHCSR
T11EC 000:304.886 - 0.315ms returns 1 (0x1)
T11EC 000:304.904 JLINK_WriteU32_64(0xE000EDF0, 0xA05F0003)
T11EC 000:304.913   Debug reg: DHCSR
T11EC 000:305.428   CPU_WriteMem(4 bytes @ 0xE000EDF0)
T11EC 000:305.677 - 0.778ms returns 0 (0x00000000)
T11EC 000:305.691 JLINK_WriteU32_64(0xE000EDFC, 0x01000000)
T11EC 000:305.700   Debug reg: DEMCR
T11EC 000:305.720   CPU_WriteMem(4 bytes @ 0xE000EDFC)
T11EC 000:305.947 - 0.260ms returns 0 (0x00000000)
T11EC 000:313.936 JLINK_GetHWStatus(...)
T11EC 000:314.074 - 0.141ms returns 0
T11EC 000:318.345 JLINK_GetNumBPUnits(Type = 0xFFFFFF00)
T11EC 000:318.362 - 0.019ms returns 0x04
T11EC 000:318.368 JLINK_GetNumBPUnits(Type = 0xF0)
T11EC 000:318.373 - 0.006ms returns 0x2000
T11EC 000:318.378 JLINK_GetNumWPUnits()
T11EC 000:318.381 - 0.005ms returns 2
T11EC 000:321.762 JLINK_GetSpeed()
T11EC 000:321.776 - 0.015ms returns 5000
T11EC 000:324.152 JLINK_ReadMemU32(0xE000E004, 0x1 Items)
T11EC 000:324.178   CPU_ReadMem(4 bytes @ 0xE000E004)
T11EC 000:324.397   Data:  00 00 00 00
T11EC 000:324.417 - 0.267ms returns 1 (0x1)
T11EC 000:324.429 JLINK_Halt()
T11EC 000:324.433 - 0.006ms returns 0x00
T11EC 000:324.439 JLINK_IsHalted()
T11EC 000:324.443 - 0.006ms returns TRUE
T11EC 000:327.310 JLINK_WriteMem(0x20000000, 0x290 Bytes, ...)
T11EC 000:327.320   Data:  00 BE 0A E0 0D 78 2D 06 68 40 08 24 40 00 00 D3 ...
T11EC 000:327.661   CPU_WriteMem(656 bytes @ 0x20000000)
T11EC 000:329.881 - 2.580ms returns 0x290
T11EC 000:329.921 JLINK_HasError()
T11EC 000:329.928 JLINK_WriteReg(R0, 0x08000000)
T11EC 000:329.944 - 0.017ms returns 0
T11EC 000:329.949 JLINK_WriteReg(R1, 0x00B71B00)
T11EC 000:329.954 - 0.006ms returns 0
T11EC 000:329.959 JLINK_WriteReg(R2, 0x00000001)
T11EC 000:329.963 - 0.006ms returns 0
T11EC 000:329.968 JLINK_WriteReg(R3, 0x00000000)
T11EC 000:329.972 - 0.006ms returns 0
T11EC 000:329.977 JLINK_WriteReg(R4, 0x00000000)
T11EC 000:329.981 - 0.006ms returns 0
T11EC 000:329.986 JLINK_WriteReg(R5, 0x00000000)
T11EC 000:329.990 - 0.006ms returns 0
T11EC 000:329.995 JLINK_WriteReg(R6, 0x00000000)
T11EC 000:329.999 - 0.006ms returns 0
T11EC 000:330.003 JLINK_WriteReg(R7, 0x00000000)
T11EC 000:330.007 - 0.006ms returns 0
T11EC 000:330.012 JLINK_WriteReg(R8, 0x00000000)
T11EC 000:330.021 - 0.011ms returns 0
T11EC 000:330.026 JLINK_WriteReg(R9, 0x20000288)
T11EC 000:330.030 - 0.006ms returns 0
T11EC 000:330.035 JLINK_WriteReg(R10, 0x00000000)
T11EC 000:330.039 - 0.006ms returns 0
T11EC 000:330.044 JLINK_WriteReg(R11, 0x00000000)
T11EC 000:330.048 - 0.006ms returns 0
T11EC 000:330.053 JLINK_WriteReg(R12, 0x00000000)
T11EC 000:330.057 - 0.005ms returns 0
T11EC 000:330.061 JLINK_WriteReg(R13 (SP), 0x20000800)
T11EC 000:330.066 - 0.006ms returns 0
T11EC 000:330.071 JLINK_WriteReg(R14, 0x20000001)
T11EC 000:330.075 - 0.006ms returns 0
T11EC 000:330.080 JLINK_WriteReg(R15 (PC), 0x20000082)
T11EC 000:330.086 - 0.008ms returns 0
T11EC 000:330.091 JLINK_WriteReg(XPSR, 0x01000000)
T11EC 000:330.095 - 0.006ms returns 0
T11EC 000:330.099 JLINK_WriteReg(MSP, 0x20000800)
T11EC 000:330.103 - 0.006ms returns 0
T11EC 000:330.108 JLINK_WriteReg(PSP, 0x20000800)
T11EC 000:330.112 - 0.006ms returns 0
T11EC 000:330.117 JLINK_WriteReg(CFBP, 0x00000000)
T11EC 000:330.121 - 0.005ms returns 0
T11EC 000:330.126 JLINK_SetBPEx(Addr = 0x20000000, Type = 0xFFFFFFF2)
T11EC 000:330.138   CPU_ReadMem(2 bytes @ 0x20000000)
T11EC 000:330.405 - 0.290ms returns 0x00000001
T11EC 000:330.427 JLINK_Go()
T11EC 000:330.437   CPU_WriteMem(2 bytes @ 0x20000000)
T11EC 000:330.699   CPU_ReadMem(4 bytes @ 0xE0001000)
T11EC 000:330.899   CPU_WriteMem(4 bytes @ 0xE0001000)
T11EC 000:330.913   CPU_WriteMem(4 bytes @ 0xE0002008)
T11EC 000:330.919   CPU_WriteMem(4 bytes @ 0xE000200C)
T11EC 000:330.925   CPU_WriteMem(4 bytes @ 0xE0002010)
T11EC 000:330.931   CPU_WriteMem(4 bytes @ 0xE0002014)
T11EC 000:331.627   CPU_WriteMem(4 bytes @ 0xE0001004)
T11EC 000:333.439 - 3.014ms
T11EC 000:333.451 JLINK_IsHalted()
T11EC 000:335.026   CPU_ReadMem(2 bytes @ 0x20000000)
T11EC 000:335.222 - 1.773ms returns TRUE
T11EC 000:335.234 JLINK_ReadReg(R15 (PC))
T11EC 000:335.241 - 0.009ms returns 0x20000000
T11EC 000:335.249 JLINK_ClrBPEx(BPHandle = 0x00000001)
T11EC 000:335.254 - 0.007ms returns 0x00
T11EC 000:335.262 JLINK_ReadReg(R0)
T11EC 000:335.266 - 0.006ms returns 0x00000000
T11EC 000:335.745 JLINK_HasError()
T11EC 000:335.759 JLINK_WriteReg(R0, 0x08000000)
T11EC 000:335.766 - 0.009ms returns 0
T11EC 000:335.772 JLINK_WriteReg(R1, 0x00B71B00)
T11EC 000:335.776 - 0.006ms returns 0
T11EC 000:335.781 JLINK_WriteReg(R2, 0x00000001)
T11EC 000:335.785 - 0.006ms returns 0
T11EC 000:335.790 JLINK_WriteReg(R3, 0x00000000)
T11EC 000:335.794 - 0.006ms returns 0
T11EC 000:335.799 JLINK_WriteReg(R4, 0x00000000)
T11EC 000:335.803 - 0.006ms returns 0
T11EC 000:335.807 JLINK_WriteReg(R5, 0x00000000)
T11EC 000:335.811 - 0.005ms returns 0
T11EC 000:335.816 JLINK_WriteReg(R6, 0x00000000)
T11EC 000:335.821 - 0.006ms returns 0
T11EC 000:335.825 JLINK_WriteReg(R7, 0x00000000)
T11EC 000:335.829 - 0.006ms returns 0
T11EC 000:335.834 JLINK_WriteReg(R8, 0x00000000)
T11EC 000:335.838 - 0.006ms returns 0
T11EC 000:335.843 JLINK_WriteReg(R9, 0x20000288)
T11EC 000:335.847 - 0.006ms returns 0
T11EC 000:335.851 JLINK_WriteReg(R10, 0x00000000)
T11EC 000:335.856 - 0.006ms returns 0
T11EC 000:335.860 JLINK_WriteReg(R11, 0x00000000)
T11EC 000:335.864 - 0.006ms returns 0
T11EC 000:335.869 JLINK_WriteReg(R12, 0x00000000)
T11EC 000:335.873 - 0.005ms returns 0
T11EC 000:335.878 JLINK_WriteReg(R13 (SP), 0x20000800)
T11EC 000:335.882 - 0.006ms returns 0
T11EC 000:335.887 JLINK_WriteReg(R14, 0x20000001)
T11EC 000:335.891 - 0.006ms returns 0
T11EC 000:335.896 JLINK_WriteReg(R15 (PC), 0x200000D0)
T11EC 000:335.900 - 0.006ms returns 0
T11EC 000:335.905 JLINK_WriteReg(XPSR, 0x01000000)
T11EC 000:335.909 - 0.006ms returns 0
T11EC 000:335.913 JLINK_WriteReg(MSP, 0x20000800)
T11EC 000:335.917 - 0.006ms returns 0
T11EC 000:335.922 JLINK_WriteReg(PSP, 0x20000800)
T11EC 000:335.926 - 0.006ms returns 0
T11EC 000:335.931 JLINK_WriteReg(CFBP, 0x00000000)
T11EC 000:335.935 - 0.006ms returns 0
T11EC 000:335.940 JLINK_SetBPEx(Addr = 0x20000000, Type = 0xFFFFFFF2)
T11EC 000:335.945 - 0.007ms returns 0x00000002
T11EC 000:335.950 JLINK_Go()
T11EC 000:335.960   CPU_ReadMem(4 bytes @ 0xE0001000)
T11EC 000:336.173   CPU_WriteMem(4 bytes @ 0xE0001000)
T11EC 000:337.971 - 2.029ms
T11EC 000:337.985 JLINK_IsHalted()
T11EC 000:341.892 - 3.910ms returns FALSE
T11EC 000:341.900 JLINK_HasError()
T11EC 000:358.347 JLINK_IsHalted()
T11EC 000:359.958   CPU_ReadMem(2 bytes @ 0x20000000)
T11EC 000:360.164 - 1.820ms returns TRUE
T11EC 000:360.172 JLINK_ReadReg(R15 (PC))
T11EC 000:360.186 - 0.015ms returns 0x20000000
T11EC 000:360.192 JLINK_ClrBPEx(BPHandle = 0x00000002)
T11EC 000:360.197 - 0.006ms returns 0x00
T11EC 000:360.202 JLINK_ReadReg(R0)
T11EC 000:360.206 - 0.006ms returns 0x00000000
T11EC 000:413.588 JLINK_HasError()
T11EC 000:413.642 JLINK_WriteReg(R0, 0x00000001)
T11EC 000:413.668 - 0.032ms returns 0
T11EC 000:413.687 JLINK_WriteReg(R1, 0x00B71B00)
T11EC 000:413.700 - 0.019ms returns 0
T11EC 000:413.715 JLINK_WriteReg(R2, 0x00000001)
T11EC 000:413.727 - 0.018ms returns 0
T11EC 000:413.741 JLINK_WriteReg(R3, 0x00000000)
T11EC 000:413.755 - 0.019ms returns 0
T11EC 000:413.899 JLINK_WriteReg(R4, 0x00000000)
T11EC 000:413.923 - 0.030ms returns 0
T11EC 000:413.938 JLINK_WriteReg(R5, 0x00000000)
T11EC 000:413.952 - 0.020ms returns 0
T11EC 000:413.967 JLINK_WriteReg(R6, 0x00000000)
T11EC 000:413.981 - 0.020ms returns 0
T11EC 000:413.996 JLINK_WriteReg(R7, 0x00000000)
T11EC 000:414.010 - 0.020ms returns 0
T11EC 000:414.025 JLINK_WriteReg(R8, 0x00000000)
T11EC 000:414.038 - 0.019ms returns 0
T11EC 000:414.054 JLINK_WriteReg(R9, 0x20000288)
T11EC 000:414.067 - 0.019ms returns 0
T11EC 000:414.083 JLINK_WriteReg(R10, 0x00000000)
T11EC 000:414.096 - 0.020ms returns 0
T11EC 000:414.112 JLINK_WriteReg(R11, 0x00000000)
T11EC 000:414.126 - 0.020ms returns 0
T11EC 000:414.141 JLINK_WriteReg(R12, 0x00000000)
T11EC 000:414.154 - 0.019ms returns 0
T11EC 000:414.170 JLINK_WriteReg(R13 (SP), 0x20000800)
T11EC 000:414.187 - 0.023ms returns 0
T11EC 000:414.203 JLINK_WriteReg(R14, 0x20000001)
T11EC 000:414.216 - 0.020ms returns 0
T11EC 000:414.232 JLINK_WriteReg(R15 (PC), 0x200000C2)
T11EC 000:414.246 - 0.020ms returns 0
T11EC 000:414.261 JLINK_WriteReg(XPSR, 0x01000000)
T11EC 000:414.279 - 0.026ms returns 0
T11EC 000:414.299 JLINK_WriteReg(MSP, 0x20000800)
T11EC 000:414.319 - 0.026ms returns 0
T11EC 000:414.335 JLINK_WriteReg(PSP, 0x20000800)
T11EC 000:414.349 - 0.020ms returns 0
T11EC 000:414.364 JLINK_WriteReg(CFBP, 0x00000000)
T11EC 000:414.378 - 0.019ms returns 0
T11EC 000:414.394 JLINK_SetBPEx(Addr = 0x20000000, Type = 0xFFFFFFF2)
T11EC 000:414.412 - 0.024ms returns 0x00000003
T11EC 000:414.428 JLINK_Go()
T11EC 000:414.468   CPU_ReadMem(4 bytes @ 0xE0001000)
T11EC 000:414.790   CPU_WriteMem(4 bytes @ 0xE0001000)
T11EC 000:416.803 - 2.389ms
T11EC 000:416.831 JLINK_IsHalted()
T11EC 000:418.478   CPU_ReadMem(2 bytes @ 0x20000000)
T11EC 000:418.706 - 1.881ms returns TRUE
T11EC 000:418.726 JLINK_ReadReg(R15 (PC))
T11EC 000:418.744 - 0.025ms returns 0x20000000
T11EC 000:418.760 JLINK_ClrBPEx(BPHandle = 0x00000003)
T11EC 000:418.773 - 0.018ms returns 0x00
T11EC 000:418.787 JLINK_ReadReg(R0)
T11EC 000:418.798 - 0.017ms returns 0x00000000
T11EC 000:427.598 JLINK_WriteMem(0x20000000, 0x290 Bytes, ...)
T11EC 000:427.610   Data:  00 BE 0A E0 0D 78 2D 06 68 40 08 24 40 00 00 D3 ...
T11EC 000:427.630   CPU_WriteMem(656 bytes @ 0x20000000)
T11EC 000:429.859 - 2.274ms returns 0x290
T11EC 000:429.911 JLINK_HasError()
T11EC 000:429.920 JLINK_WriteReg(R0, 0x08000000)
T11EC 000:429.929 - 0.011ms returns 0
T11EC 000:429.935 JLINK_WriteReg(R1, 0x00B71B00)
T11EC 000:429.941 - 0.007ms returns 0
T11EC 000:429.947 JLINK_WriteReg(R2, 0x00000002)
T11EC 000:429.952 - 0.007ms returns 0
T11EC 000:429.958 JLINK_WriteReg(R3, 0x00000000)
T11EC 000:429.962 - 0.007ms returns 0
T11EC 000:429.968 JLINK_WriteReg(R4, 0x00000000)
T11EC 000:429.973 - 0.007ms returns 0
T11EC 000:429.979 JLINK_WriteReg(R5, 0x00000000)
T11EC 000:429.984 - 0.007ms returns 0
T11EC 000:429.989 JLINK_WriteReg(R6, 0x00000000)
T11EC 000:429.994 - 0.007ms returns 0
T11EC 000:430.000 JLINK_WriteReg(R7, 0x00000000)
T11EC 000:430.006 - 0.007ms returns 0
T11EC 000:430.011 JLINK_WriteReg(R8, 0x00000000)
T11EC 000:430.016 - 0.007ms returns 0
T11EC 000:430.022 JLINK_WriteReg(R9, 0x20000288)
T11EC 000:430.027 - 0.007ms returns 0
T11EC 000:430.033 JLINK_WriteReg(R10, 0x00000000)
T11EC 000:430.038 - 0.007ms returns 0
T11EC 000:430.043 JLINK_WriteReg(R11, 0x00000000)
T11EC 000:430.049 - 0.007ms returns 0
T11EC 000:430.059 JLINK_WriteReg(R12, 0x00000000)
T11EC 000:430.065 - 0.007ms returns 0
T11EC 000:430.070 JLINK_WriteReg(R13 (SP), 0x20000800)
T11EC 000:430.076 - 0.008ms returns 0
T11EC 000:430.082 JLINK_WriteReg(R14, 0x20000001)
T11EC 000:430.087 - 0.007ms returns 0
T11EC 000:430.093 JLINK_WriteReg(R15 (PC), 0x20000082)
T11EC 000:430.098 - 0.007ms returns 0
T11EC 000:430.104 JLINK_WriteReg(XPSR, 0x01000000)
T11EC 000:430.109 - 0.007ms returns 0
T11EC 000:430.115 JLINK_WriteReg(MSP, 0x20000800)
T11EC 000:430.120 - 0.007ms returns 0
T11EC 000:430.126 JLINK_WriteReg(PSP, 0x20000800)
T11EC 000:430.136 - 0.014ms returns 0
T11EC 000:430.144 JLINK_WriteReg(CFBP, 0x00000000)
T11EC 000:430.149 - 0.007ms returns 0
T11EC 000:430.155 JLINK_SetBPEx(Addr = 0x20000000, Type = 0xFFFFFFF2)
T11EC 000:430.166   CPU_ReadMem(2 bytes @ 0x20000000)
T11EC 000:430.399 - 0.246ms returns 0x00000004
T11EC 000:430.407 JLINK_Go()
T11EC 000:430.415   CPU_WriteMem(2 bytes @ 0x20000000)
T11EC 000:430.649   CPU_ReadMem(4 bytes @ 0xE0001000)
T11EC 000:430.849   CPU_WriteMem(4 bytes @ 0xE0001000)
T11EC 000:432.723 - 2.322ms
T11EC 000:432.735 JLINK_IsHalted()
T11EC 000:434.413   CPU_ReadMem(2 bytes @ 0x20000000)
T11EC 000:434.622 - 1.890ms returns TRUE
T11EC 000:434.632 JLINK_ReadReg(R15 (PC))
T11EC 000:434.640 - 0.010ms returns 0x20000000
T11EC 000:434.647 JLINK_ClrBPEx(BPHandle = 0x00000004)
T11EC 000:434.653 - 0.008ms returns 0x00
T11EC 000:434.660 JLINK_ReadReg(R0)
T11EC 000:434.666 - 0.008ms returns 0x00000000
T11EC 000:434.991 JLINK_WriteMem(0x20000290, 0x80 Bytes, ...)
T11EC 000:435.004   Data:  70 06 00 20 A1 01 00 08 99 33 00 08 D3 2A 00 08 ...
T11EC 000:435.022   CPU_WriteMem(128 bytes @ 0x20000290)
T11EC 000:435.624 - 0.637ms returns 0x80
T11EC 000:435.635 JLINK_HasError()
T11EC 000:435.643 JLINK_WriteReg(R0, 0x08000000)
T11EC 000:435.654 - 0.015ms returns 0
T11EC 000:435.662 JLINK_WriteReg(R1, 0x00000080)
T11EC 000:435.668 - 0.008ms returns 0
T11EC 000:435.675 JLINK_WriteReg(R2, 0x20000290)
T11EC 000:435.681 - 0.008ms returns 0
T11EC 000:435.687 JLINK_WriteReg(R3, 0x00000000)
T11EC 000:435.693 - 0.008ms returns 0
T11EC 000:435.699 JLINK_WriteReg(R4, 0x00000000)
T11EC 000:435.705 - 0.008ms returns 0
T11EC 000:435.711 JLINK_WriteReg(R5, 0x00000000)
T11EC 000:435.717 - 0.008ms returns 0
T11EC 000:435.723 JLINK_WriteReg(R6, 0x00000000)
T11EC 000:435.729 - 0.008ms returns 0
T11EC 000:435.735 JLINK_WriteReg(R7, 0x00000000)
T11EC 000:435.741 - 0.012ms returns 0
T11EC 000:435.753 JLINK_WriteReg(R8, 0x00000000)
T11EC 000:435.759 - 0.008ms returns 0
T11EC 000:435.765 JLINK_WriteReg(R9, 0x20000288)
T11EC 000:435.771 - 0.008ms returns 0
T11EC 000:435.777 JLINK_WriteReg(R10, 0x00000000)
T11EC 000:435.783 - 0.008ms returns 0
T11EC 000:435.789 JLINK_WriteReg(R11, 0x00000000)
T11EC 000:435.795 - 0.008ms returns 0
T11EC 000:435.801 JLINK_WriteReg(R12, 0x00000000)
T11EC 000:435.808 - 0.008ms returns 0
T11EC 000:435.814 JLINK_WriteReg(R13 (SP), 0x20000800)
T11EC 000:435.821 - 0.009ms returns 0
T11EC 000:435.827 JLINK_WriteReg(R14, 0x20000001)
T11EC 000:435.833 - 0.009ms returns 0
T11EC 000:435.841 JLINK_WriteReg(R15 (PC), 0x20000180)
T11EC 000:435.847 - 0.008ms returns 0
T11EC 000:435.853 JLINK_WriteReg(XPSR, 0x01000000)
T11EC 000:435.858 - 0.008ms returns 0
T11EC 000:435.864 JLINK_WriteReg(MSP, 0x20000800)
T11EC 000:435.870 - 0.008ms returns 0
T11EC 000:435.876 JLINK_WriteReg(PSP, 0x20000800)
T11EC 000:435.882 - 0.008ms returns 0
T11EC 000:435.888 JLINK_WriteReg(CFBP, 0x00000000)
T11EC 000:435.893 - 0.008ms returns 0
T11EC 000:435.900 JLINK_SetBPEx(Addr = 0x20000000, Type = 0xFFFFFFF2)
T11EC 000:435.906 - 0.009ms returns 0x00000005
T11EC 000:435.913 JLINK_Go()
T11EC 000:435.924   CPU_ReadMem(4 bytes @ 0xE0001000)
T11EC 000:436.122   CPU_WriteMem(4 bytes @ 0xE0001000)
T11EC 000:437.975 - 2.074ms
T11EC 000:438.003 JLINK_IsHalted()
T11EC 000:439.097 - 1.096ms returns FALSE
T11EC 000:439.107 JLINK_HasError()
T11EC 000:444.344 JLINK_IsHalted()
T11EC 000:445.956   CPU_ReadMem(2 bytes @ 0x20000000)
T11EC 000:446.169 - 1.828ms returns TRUE
T11EC 000:446.177 JLINK_ReadReg(R15 (PC))
T11EC 000:446.184 - 0.009ms returns 0x20000000
T11EC 000:446.190 JLINK_ClrBPEx(BPHandle = 0x00000005)
T11EC 000:446.195 - 0.007ms returns 0x00
T11EC 000:446.200 JLINK_ReadReg(R0)
T11EC 000:446.204 - 0.006ms returns 0x00000000
T11EC 000:446.600 JLINK_WriteMem(0x20000290, 0x80 Bytes, ...)
T11EC 000:446.611   Data:  00 00 00 00 B3 01 00 08 00 00 00 00 55 37 00 08 ...
T11EC 000:446.624   CPU_WriteMem(128 bytes @ 0x20000290)
T11EC 000:447.223 - 0.626ms returns 0x80
T11EC 000:447.232 JLINK_HasError()
T11EC 000:447.241 JLINK_WriteReg(R0, 0x08000080)
T11EC 000:447.250 - 0.011ms returns 0
T11EC 000:447.255 JLINK_WriteReg(R1, 0x00000080)
T11EC 000:447.259 - 0.006ms returns 0
T11EC 000:447.264 JLINK_WriteReg(R2, 0x20000290)
T11EC 000:447.268 - 0.006ms returns 0
T11EC 000:447.273 JLINK_WriteReg(R3, 0x00000000)
T11EC 000:447.277 - 0.006ms returns 0
T11EC 000:447.282 JLINK_WriteReg(R4, 0x00000000)
T11EC 000:447.286 - 0.006ms returns 0
T11EC 000:447.291 JLINK_WriteReg(R5, 0x00000000)
T11EC 000:447.295 - 0.006ms returns 0
T11EC 000:447.300 JLINK_WriteReg(R6, 0x00000000)
T11EC 000:447.304 - 0.006ms returns 0
T11EC 000:447.309 JLINK_WriteReg(R7, 0x00000000)
T11EC 000:447.313 - 0.006ms returns 0
T11EC 000:447.318 JLINK_WriteReg(R8, 0x00000000)
T11EC 000:447.322 - 0.006ms returns 0
T11EC 000:447.327 JLINK_WriteReg(R9, 0x20000288)
T11EC 000:447.331 - 0.006ms returns 0
T11EC 000:447.335 JLINK_WriteReg(R10, 0x00000000)
T11EC 000:447.340 - 0.006ms returns 0
T11EC 000:447.344 JLINK_WriteReg(R11, 0x00000000)
T11EC 000:447.348 - 0.006ms returns 0
T11EC 000:447.353 JLINK_WriteReg(R12, 0x00000000)
T11EC 000:447.357 - 0.006ms returns 0
T11EC 000:447.362 JLINK_WriteReg(R13 (SP), 0x20000800)
T11EC 000:447.367 - 0.006ms returns 0
T11EC 000:447.372 JLINK_WriteReg(R14, 0x20000001)
T11EC 000:447.376 - 0.006ms returns 0
T11EC 000:447.380 JLINK_WriteReg(R15 (PC), 0x20000180)
T11EC 000:447.385 - 0.006ms returns 0
T11EC 000:447.389 JLINK_WriteReg(XPSR, 0x01000000)
T11EC 000:447.394 - 0.006ms returns 0
T11EC 000:447.398 JLINK_WriteReg(MSP, 0x20000800)
T11EC 000:447.403 - 0.006ms returns 0
T11EC 000:447.412 JLINK_WriteReg(PSP, 0x20000800)
T11EC 000:447.416 - 0.006ms returns 0
T11EC 000:447.421 JLINK_WriteReg(CFBP, 0x00000000)
T11EC 000:447.425 - 0.006ms returns 0
T11EC 000:447.430 JLINK_SetBPEx(Addr = 0x20000000, Type = 0xFFFFFFF2)
T11EC 000:447.436 - 0.007ms returns 0x00000006
T11EC 000:447.441 JLINK_Go()
T11EC 000:447.449   CPU_ReadMem(4 bytes @ 0xE0001000)
T11EC 000:447.641   CPU_WriteMem(4 bytes @ 0xE0001000)
T11EC 000:449.442 - 2.013ms
T11EC 000:449.460 JLINK_IsHalted()
T11EC 000:450.598 - 1.143ms returns FALSE
T11EC 000:450.608 JLINK_HasError()
T11EC 000:453.345 JLINK_IsHalted()
T11EC 000:455.034   CPU_ReadMem(2 bytes @ 0x20000000)
T11EC 000:455.244 - 1.902ms returns TRUE
T11EC 000:455.252 JLINK_ReadReg(R15 (PC))
T11EC 000:455.259 - 0.009ms returns 0x20000000
T11EC 000:455.264 JLINK_ClrBPEx(BPHandle = 0x00000006)
T11EC 000:455.269 - 0.006ms returns 0x00
T11EC 000:455.274 JLINK_ReadReg(R0)
T11EC 000:455.278 - 0.006ms returns 0x00000000
T11EC 000:455.658 JLINK_WriteMem(0x20000290, 0x80 Bytes, ...)
T11EC 000:455.668   Data:  F1 DC 30 BD 03 46 0B 43 9B 07 03 D0 09 E0 08 C9 ...
T11EC 000:455.681   CPU_WriteMem(128 bytes @ 0x20000290)
T11EC 000:456.245 - 0.590ms returns 0x80
T11EC 000:456.253 JLINK_HasError()
T11EC 000:456.258 JLINK_WriteReg(R0, 0x08000100)
T11EC 000:456.265 - 0.008ms returns 0
T11EC 000:456.269 JLINK_WriteReg(R1, 0x00000080)
T11EC 000:456.274 - 0.006ms returns 0
T11EC 000:456.279 JLINK_WriteReg(R2, 0x20000290)
T11EC 000:456.283 - 0.006ms returns 0
T11EC 000:456.287 JLINK_WriteReg(R3, 0x00000000)
T11EC 000:456.292 - 0.006ms returns 0
T11EC 000:456.296 JLINK_WriteReg(R4, 0x00000000)
T11EC 000:456.300 - 0.006ms returns 0
T11EC 000:456.305 JLINK_WriteReg(R5, 0x00000000)
T11EC 000:456.309 - 0.006ms returns 0
T11EC 000:456.314 JLINK_WriteReg(R6, 0x00000000)
T11EC 000:456.318 - 0.006ms returns 0
T11EC 000:456.323 JLINK_WriteReg(R7, 0x00000000)
T11EC 000:456.327 - 0.006ms returns 0
T11EC 000:456.331 JLINK_WriteReg(R8, 0x00000000)
T11EC 000:456.336 - 0.006ms returns 0
T11EC 000:456.340 JLINK_WriteReg(R9, 0x20000288)
T11EC 000:456.345 - 0.006ms returns 0
T11EC 000:456.350 JLINK_WriteReg(R10, 0x00000000)
T11EC 000:456.354 - 0.006ms returns 0
T11EC 000:456.359 JLINK_WriteReg(R11, 0x00000000)
T11EC 000:456.364 - 0.006ms returns 0
T11EC 000:456.369 JLINK_WriteReg(R12, 0x00000000)
T11EC 000:456.373 - 0.006ms returns 0
T11EC 000:456.377 JLINK_WriteReg(R13 (SP), 0x20000800)
T11EC 000:456.386 - 0.012ms returns 0
T11EC 000:456.393 JLINK_WriteReg(R14, 0x20000001)
T11EC 000:456.402 - 0.011ms returns 0
T11EC 000:456.407 JLINK_WriteReg(R15 (PC), 0x20000180)
T11EC 000:456.411 - 0.006ms returns 0
T11EC 000:456.416 JLINK_WriteReg(XPSR, 0x01000000)
T11EC 000:456.425 - 0.010ms returns 0
T11EC 000:456.429 JLINK_WriteReg(MSP, 0x20000800)
T11EC 000:456.433 - 0.006ms returns 0
T11EC 000:456.438 JLINK_WriteReg(PSP, 0x20000800)
T11EC 000:456.442 - 0.006ms returns 0
T11EC 000:456.447 JLINK_WriteReg(CFBP, 0x00000000)
T11EC 000:456.451 - 0.006ms returns 0
T11EC 000:456.456 JLINK_SetBPEx(Addr = 0x20000000, Type = 0xFFFFFFF2)
T11EC 000:456.461 - 0.006ms returns 0x00000007
T11EC 000:456.466 JLINK_Go()
T11EC 000:456.475   CPU_ReadMem(4 bytes @ 0xE0001000)
T11EC 000:456.664   CPU_WriteMem(4 bytes @ 0xE0001000)
T11EC 000:458.434 - 1.971ms
T11EC 000:458.442 JLINK_IsHalted()
T11EC 000:459.599 - 1.161ms returns FALSE
T11EC 000:459.608 JLINK_HasError()
T11EC 000:462.343 JLINK_IsHalted()
T11EC 000:463.920   CPU_ReadMem(2 bytes @ 0x20000000)
T11EC 000:464.120 - 1.780ms returns TRUE
T11EC 000:464.127 JLINK_ReadReg(R15 (PC))
T11EC 000:464.133 - 0.008ms returns 0x20000000
T11EC 000:464.138 JLINK_ClrBPEx(BPHandle = 0x00000007)
T11EC 000:464.142 - 0.006ms returns 0x00
T11EC 000:464.146 JLINK_ReadReg(R0)
T11EC 000:464.150 - 0.005ms returns 0x00000000
T11EC 000:464.480 JLINK_WriteMem(0x20000290, 0x80 Bytes, ...)
T11EC 000:464.488   Data:  C1 0D 07 23 DB 01 C9 18 40 02 09 05 40 0A 11 43 ...
T11EC 000:464.499   CPU_WriteMem(128 bytes @ 0x20000290)
T11EC 000:465.097 - 0.620ms returns 0x80
T11EC 000:465.105 JLINK_HasError()
T11EC 000:465.110 JLINK_WriteReg(R0, 0x08000180)
T11EC 000:465.115 - 0.007ms returns 0
T11EC 000:465.120 JLINK_WriteReg(R1, 0x00000080)
T11EC 000:465.124 - 0.005ms returns 0
T11EC 000:465.128 JLINK_WriteReg(R2, 0x20000290)
T11EC 000:465.132 - 0.005ms returns 0
T11EC 000:465.136 JLINK_WriteReg(R3, 0x00000000)
T11EC 000:465.140 - 0.005ms returns 0
T11EC 000:465.145 JLINK_WriteReg(R4, 0x00000000)
T11EC 000:465.148 - 0.005ms returns 0
T11EC 000:465.153 JLINK_WriteReg(R5, 0x00000000)
T11EC 000:465.157 - 0.005ms returns 0
T11EC 000:465.161 JLINK_WriteReg(R6, 0x00000000)
T11EC 000:465.165 - 0.005ms returns 0
T11EC 000:465.169 JLINK_WriteReg(R7, 0x00000000)
T11EC 000:465.173 - 0.005ms returns 0
T11EC 000:465.177 JLINK_WriteReg(R8, 0x00000000)
T11EC 000:465.181 - 0.005ms returns 0
T11EC 000:465.190 JLINK_WriteReg(R9, 0x20000288)
T11EC 000:465.193 - 0.005ms returns 0
T11EC 000:465.198 JLINK_WriteReg(R10, 0x00000000)
T11EC 000:465.202 - 0.005ms returns 0
T11EC 000:465.206 JLINK_WriteReg(R11, 0x00000000)
T11EC 000:465.210 - 0.005ms returns 0
T11EC 000:465.214 JLINK_WriteReg(R12, 0x00000000)
T11EC 000:465.218 - 0.005ms returns 0
T11EC 000:465.222 JLINK_WriteReg(R13 (SP), 0x20000800)
T11EC 000:465.226 - 0.006ms returns 0
T11EC 000:465.231 JLINK_WriteReg(R14, 0x20000001)
T11EC 000:465.234 - 0.005ms returns 0
T11EC 000:465.239 JLINK_WriteReg(R15 (PC), 0x20000180)
T11EC 000:465.243 - 0.006ms returns 0
T11EC 000:465.247 JLINK_WriteReg(XPSR, 0x01000000)
T11EC 000:465.251 - 0.005ms returns 0
T11EC 000:465.255 JLINK_WriteReg(MSP, 0x20000800)
T11EC 000:465.259 - 0.005ms returns 0
T11EC 000:465.264 JLINK_WriteReg(PSP, 0x20000800)
T11EC 000:465.267 - 0.005ms returns 0
T11EC 000:465.272 JLINK_WriteReg(CFBP, 0x00000000)
T11EC 000:465.275 - 0.005ms returns 0
T11EC 000:465.280 JLINK_SetBPEx(Addr = 0x20000000, Type = 0xFFFFFFF2)
T11EC 000:465.284 - 0.006ms returns 0x00000008
T11EC 000:465.289 JLINK_Go()
T11EC 000:465.297   CPU_ReadMem(4 bytes @ 0xE0001000)
T11EC 000:465.497   CPU_WriteMem(4 bytes @ 0xE0001000)
T11EC 000:467.308 - 2.021ms
T11EC 000:467.314 JLINK_IsHalted()
T11EC 000:468.434 - 1.121ms returns FALSE
T11EC 000:468.444 JLINK_HasError()
T11EC 000:470.345 JLINK_IsHalted()
T11EC 000:472.027   CPU_ReadMem(2 bytes @ 0x20000000)
T11EC 000:472.221 - 1.879ms returns TRUE
T11EC 000:472.229 JLINK_ReadReg(R15 (PC))
T11EC 000:472.235 - 0.057ms returns 0x20000000
T11EC 000:472.292 JLINK_ClrBPEx(BPHandle = 0x00000008)
T11EC 000:472.297 - 0.007ms returns 0x00
T11EC 000:472.302 JLINK_ReadReg(R0)
T11EC 000:472.307 - 0.006ms returns 0x00000000
T11EC 000:472.715 JLINK_WriteMem(0x20000290, 0x80 Bytes, ...)
T11EC 000:472.729   Data:  E7 F9 38 18 4D 41 00 90 20 46 64 1E 00 28 DF DC ...
T11EC 000:472.743   CPU_WriteMem(128 bytes @ 0x20000290)
T11EC 000:473.312 - 0.600ms returns 0x80
T11EC 000:473.320 JLINK_HasError()
T11EC 000:473.326 JLINK_WriteReg(R0, 0x08000200)
T11EC 000:473.332 - 0.008ms returns 0
T11EC 000:473.338 JLINK_WriteReg(R1, 0x00000080)
T11EC 000:473.342 - 0.006ms returns 0
T11EC 000:473.347 JLINK_WriteReg(R2, 0x20000290)
T11EC 000:473.351 - 0.006ms returns 0
T11EC 000:473.373 JLINK_WriteReg(R3, 0x00000000)
T11EC 000:473.378 - 0.006ms returns 0
T11EC 000:473.383 JLINK_WriteReg(R4, 0x00000000)
T11EC 000:473.403 - 0.027ms returns 0
T11EC 000:473.419 JLINK_WriteReg(R5, 0x00000000)
T11EC 000:473.424 - 0.007ms returns 0
T11EC 000:473.429 JLINK_WriteReg(R6, 0x00000000)
T11EC 000:473.433 - 0.006ms returns 0
T11EC 000:473.438 JLINK_WriteReg(R7, 0x00000000)
T11EC 000:473.442 - 0.006ms returns 0
T11EC 000:473.447 JLINK_WriteReg(R8, 0x00000000)
T11EC 000:473.451 - 0.006ms returns 0
T11EC 000:473.456 JLINK_WriteReg(R9, 0x20000288)
T11EC 000:473.460 - 0.006ms returns 0
T11EC 000:473.465 JLINK_WriteReg(R10, 0x00000000)
T11EC 000:473.469 - 0.006ms returns 0
T11EC 000:473.474 JLINK_WriteReg(R11, 0x00000000)
T11EC 000:473.478 - 0.006ms returns 0
T11EC 000:473.482 JLINK_WriteReg(R12, 0x00000000)
T11EC 000:473.486 - 0.005ms returns 0
T11EC 000:473.491 JLINK_WriteReg(R13 (SP), 0x20000800)
T11EC 000:473.495 - 0.006ms returns 0
T11EC 000:473.500 JLINK_WriteReg(R14, 0x20000001)
T11EC 000:473.504 - 0.006ms returns 0
T11EC 000:473.509 JLINK_WriteReg(R15 (PC), 0x20000180)
T11EC 000:473.513 - 0.006ms returns 0
T11EC 000:473.518 JLINK_WriteReg(XPSR, 0x01000000)
T11EC 000:473.522 - 0.006ms returns 0
T11EC 000:473.527 JLINK_WriteReg(MSP, 0x20000800)
T11EC 000:473.531 - 0.006ms returns 0
T11EC 000:473.535 JLINK_WriteReg(PSP, 0x20000800)
T11EC 000:473.539 - 0.005ms returns 0
T11EC 000:473.544 JLINK_WriteReg(CFBP, 0x00000000)
T11EC 000:473.548 - 0.005ms returns 0
T11EC 000:473.553 JLINK_SetBPEx(Addr = 0x20000000, Type = 0xFFFFFFF2)
T11EC 000:473.559 - 0.007ms returns 0x00000009
T11EC 000:473.564 JLINK_Go()
T11EC 000:473.574   CPU_ReadMem(4 bytes @ 0xE0001000)
T11EC 000:473.770   CPU_WriteMem(4 bytes @ 0xE0001000)
T11EC 000:475.564 - 2.003ms
T11EC 000:475.571 JLINK_IsHalted()
T11EC 000:476.722 - 1.154ms returns FALSE
T11EC 000:476.731 JLINK_HasError()
T11EC 000:481.354 JLINK_IsHalted()
T11EC 000:482.945   CPU_ReadMem(2 bytes @ 0x20000000)
T11EC 000:483.139 - 1.787ms returns TRUE
T11EC 000:483.145 JLINK_ReadReg(R15 (PC))
T11EC 000:483.150 - 0.006ms returns 0x20000000
T11EC 000:483.154 JLINK_ClrBPEx(BPHandle = 0x00000009)
T11EC 000:483.158 - 0.005ms returns 0x00
T11EC 000:483.162 JLINK_ReadReg(R0)
T11EC 000:483.166 - 0.005ms returns 0x00000000
T11EC 000:483.469 JLINK_WriteMem(0x20000290, 0x80 Bytes, ...)
T11EC 000:483.482   Data:  90 41 00 91 01 90 02 98 40 21 0A 1A 01 99 00 98 ...
T11EC 000:483.493   CPU_WriteMem(128 bytes @ 0x20000290)
T11EC 000:484.061 - 0.594ms returns 0x80
T11EC 000:484.068 JLINK_HasError()
T11EC 000:484.073 JLINK_WriteReg(R0, 0x08000280)
T11EC 000:484.078 - 0.007ms returns 0
T11EC 000:484.082 JLINK_WriteReg(R1, 0x00000080)
T11EC 000:484.086 - 0.005ms returns 0
T11EC 000:484.090 JLINK_WriteReg(R2, 0x20000290)
T11EC 000:484.094 - 0.005ms returns 0
T11EC 000:484.098 JLINK_WriteReg(R3, 0x00000000)
T11EC 000:484.102 - 0.005ms returns 0
T11EC 000:484.106 JLINK_WriteReg(R4, 0x00000000)
T11EC 000:484.109 - 0.005ms returns 0
T11EC 000:484.113 JLINK_WriteReg(R5, 0x00000000)
T11EC 000:484.117 - 0.010ms returns 0
T11EC 000:484.126 JLINK_WriteReg(R6, 0x00000000)
T11EC 000:484.130 - 0.005ms returns 0
T11EC 000:484.134 JLINK_WriteReg(R7, 0x00000000)
T11EC 000:484.137 - 0.005ms returns 0
T11EC 000:484.176 JLINK_WriteReg(R8, 0x00000000)
T11EC 000:484.181 - 0.007ms returns 0
T11EC 000:484.185 JLINK_WriteReg(R9, 0x20000288)
T11EC 000:484.189 - 0.005ms returns 0
T11EC 000:484.193 JLINK_WriteReg(R10, 0x00000000)
T11EC 000:484.197 - 0.005ms returns 0
T11EC 000:484.201 JLINK_WriteReg(R11, 0x00000000)
T11EC 000:484.204 - 0.005ms returns 0
T11EC 000:484.208 JLINK_WriteReg(R12, 0x00000000)
T11EC 000:484.212 - 0.005ms returns 0
T11EC 000:484.216 JLINK_WriteReg(R13 (SP), 0x20000800)
T11EC 000:484.220 - 0.005ms returns 0
T11EC 000:484.224 JLINK_WriteReg(R14, 0x20000001)
T11EC 000:484.228 - 0.005ms returns 0
T11EC 000:484.232 JLINK_WriteReg(R15 (PC), 0x20000180)
T11EC 000:484.236 - 0.005ms returns 0
T11EC 000:484.240 JLINK_WriteReg(XPSR, 0x01000000)
T11EC 000:484.244 - 0.005ms returns 0
T11EC 000:484.248 JLINK_WriteReg(MSP, 0x20000800)
T11EC 000:484.251 - 0.005ms returns 0
T11EC 000:484.255 JLINK_WriteReg(PSP, 0x20000800)
T11EC 000:484.259 - 0.005ms returns 0
T11EC 000:484.263 JLINK_WriteReg(CFBP, 0x00000000)
T11EC 000:484.267 - 0.005ms returns 0
T11EC 000:484.271 JLINK_SetBPEx(Addr = 0x20000000, Type = 0xFFFFFFF2)
T11EC 000:484.275 - 0.006ms returns 0x0000000A
T11EC 000:484.280 JLINK_Go()
T11EC 000:484.287   CPU_ReadMem(4 bytes @ 0xE0001000)
T11EC 000:484.470   CPU_WriteMem(4 bytes @ 0xE0001000)
T11EC 000:486.307 - 2.030ms
T11EC 000:486.314 JLINK_IsHalted()
T11EC 000:487.440 - 1.133ms returns FALSE
T11EC 000:487.453 JLINK_HasError()
T11EC 000:489.343 JLINK_IsHalted()
T11EC 000:491.027   CPU_ReadMem(2 bytes @ 0x20000000)
T11EC 000:491.221 - 1.880ms returns TRUE
T11EC 000:491.235 JLINK_ReadReg(R15 (PC))
T11EC 000:491.242 - 0.008ms returns 0x20000000
T11EC 000:491.249 JLINK_ClrBPEx(BPHandle = 0x0000000A)
T11EC 000:491.254 - 0.006ms returns 0x00
T11EC 000:491.261 JLINK_ReadReg(R0)
T11EC 000:491.266 - 0.006ms returns 0x00000000
T11EC 000:491.667 JLINK_WriteMem(0x20000290, 0x80 Bytes, ...)
T11EC 000:491.677   Data:  00 1C 4F 41 00 18 7F 41 11 46 18 18 79 41 E2 0F ...
T11EC 000:491.689   CPU_WriteMem(128 bytes @ 0x20000290)
T11EC 000:492.266 - 0.602ms returns 0x80
T11EC 000:492.274 JLINK_HasError()
T11EC 000:492.278 JLINK_WriteReg(R0, 0x08000300)
T11EC 000:492.284 - 0.007ms returns 0
T11EC 000:492.288 JLINK_WriteReg(R1, 0x00000080)
T11EC 000:492.291 - 0.005ms returns 0
T11EC 000:492.296 JLINK_WriteReg(R2, 0x20000290)
T11EC 000:492.304 - 0.010ms returns 0
T11EC 000:492.308 JLINK_WriteReg(R3, 0x00000000)
T11EC 000:492.311 - 0.005ms returns 0
T11EC 000:492.315 JLINK_WriteReg(R4, 0x00000000)
T11EC 000:492.319 - 0.005ms returns 0
T11EC 000:492.323 JLINK_WriteReg(R5, 0x00000000)
T11EC 000:492.327 - 0.005ms returns 0
T11EC 000:492.331 JLINK_WriteReg(R6, 0x00000000)
T11EC 000:492.334 - 0.005ms returns 0
T11EC 000:492.338 JLINK_WriteReg(R7, 0x00000000)
T11EC 000:492.342 - 0.005ms returns 0
T11EC 000:492.346 JLINK_WriteReg(R8, 0x00000000)
T11EC 000:492.349 - 0.005ms returns 0
T11EC 000:492.353 JLINK_WriteReg(R9, 0x20000288)
T11EC 000:492.393 - 0.041ms returns 0
T11EC 000:492.397 JLINK_WriteReg(R10, 0x00000000)
T11EC 000:492.401 - 0.005ms returns 0
T11EC 000:492.405 JLINK_WriteReg(R11, 0x00000000)
T11EC 000:492.408 - 0.005ms returns 0
T11EC 000:492.412 JLINK_WriteReg(R12, 0x00000000)
T11EC 000:492.416 - 0.005ms returns 0
T11EC 000:492.420 JLINK_WriteReg(R13 (SP), 0x20000800)
T11EC 000:492.424 - 0.005ms returns 0
T11EC 000:492.428 JLINK_WriteReg(R14, 0x20000001)
T11EC 000:492.432 - 0.005ms returns 0
T11EC 000:492.435 JLINK_WriteReg(R15 (PC), 0x20000180)
T11EC 000:492.439 - 0.005ms returns 0
T11EC 000:492.443 JLINK_WriteReg(XPSR, 0x01000000)
T11EC 000:492.447 - 0.005ms returns 0
T11EC 000:492.451 JLINK_WriteReg(MSP, 0x20000800)
T11EC 000:492.454 - 0.005ms returns 0
T11EC 000:492.458 JLINK_WriteReg(PSP, 0x20000800)
T11EC 000:492.462 - 0.005ms returns 0
T11EC 000:492.466 JLINK_WriteReg(CFBP, 0x00000000)
T11EC 000:492.469 - 0.005ms returns 0
T11EC 000:492.473 JLINK_SetBPEx(Addr = 0x20000000, Type = 0xFFFFFFF2)
T11EC 000:492.478 - 0.006ms returns 0x0000000B
T11EC 000:492.485 JLINK_Go()
T11EC 000:492.495   CPU_ReadMem(4 bytes @ 0xE0001000)
T11EC 000:492.687   CPU_WriteMem(4 bytes @ 0xE0001000)
T11EC 000:494.435 - 1.954ms
T11EC 000:494.444 JLINK_IsHalted()
T11EC 000:495.596 - 1.155ms returns FALSE
T11EC 000:495.603 JLINK_HasError()
T11EC 000:500.344 JLINK_IsHalted()
T11EC 000:501.925   CPU_ReadMem(2 bytes @ 0x20000000)
T11EC 000:502.118 - 1.776ms returns TRUE
T11EC 000:502.125 JLINK_ReadReg(R15 (PC))
T11EC 000:502.131 - 0.008ms returns 0x20000000
T11EC 000:502.136 JLINK_ClrBPEx(BPHandle = 0x0000000B)
T11EC 000:502.140 - 0.006ms returns 0x00
T11EC 000:502.145 JLINK_ReadReg(R0)
T11EC 000:502.149 - 0.006ms returns 0x00000000
T11EC 000:502.540 JLINK_WriteMem(0x20000290, 0x80 Bytes, ...)
T11EC 000:502.551   Data:  00 00 E0 FF F0 B5 1F B4 88 B0 0B 99 09 98 00 24 ...
T11EC 000:502.562   CPU_WriteMem(128 bytes @ 0x20000290)
T11EC 000:503.142 - 0.608ms returns 0x80
T11EC 000:503.152 JLINK_HasError()
T11EC 000:503.157 JLINK_WriteReg(R0, 0x08000380)
T11EC 000:503.162 - 0.007ms returns 0
T11EC 000:503.166 JLINK_WriteReg(R1, 0x00000080)
T11EC 000:503.170 - 0.005ms returns 0
T11EC 000:503.174 JLINK_WriteReg(R2, 0x20000290)
T11EC 000:503.177 - 0.005ms returns 0
T11EC 000:503.181 JLINK_WriteReg(R3, 0x00000000)
T11EC 000:503.184 - 0.005ms returns 0
T11EC 000:503.188 JLINK_WriteReg(R4, 0x00000000)
T11EC 000:503.191 - 0.004ms returns 0
T11EC 000:503.195 JLINK_WriteReg(R5, 0x00000000)
T11EC 000:503.199 - 0.004ms returns 0
T11EC 000:503.202 JLINK_WriteReg(R6, 0x00000000)
T11EC 000:503.206 - 0.004ms returns 0
T11EC 000:503.209 JLINK_WriteReg(R7, 0x00000000)
T11EC 000:503.213 - 0.004ms returns 0
T11EC 000:503.216 JLINK_WriteReg(R8, 0x00000000)
T11EC 000:503.220 - 0.004ms returns 0
T11EC 000:503.224 JLINK_WriteReg(R9, 0x20000288)
T11EC 000:503.227 - 0.005ms returns 0
T11EC 000:503.231 JLINK_WriteReg(R10, 0x00000000)
T11EC 000:503.234 - 0.005ms returns 0
T11EC 000:503.238 JLINK_WriteReg(R11, 0x00000000)
T11EC 000:503.241 - 0.004ms returns 0
T11EC 000:503.245 JLINK_WriteReg(R12, 0x00000000)
T11EC 000:503.248 - 0.004ms returns 0
T11EC 000:503.252 JLINK_WriteReg(R13 (SP), 0x20000800)
T11EC 000:503.256 - 0.005ms returns 0
T11EC 000:503.260 JLINK_WriteReg(R14, 0x20000001)
T11EC 000:503.263 - 0.004ms returns 0
T11EC 000:503.267 JLINK_WriteReg(R15 (PC), 0x20000180)
T11EC 000:503.270 - 0.005ms returns 0
T11EC 000:503.274 JLINK_WriteReg(XPSR, 0x01000000)
T11EC 000:503.277 - 0.004ms returns 0
T11EC 000:503.281 JLINK_WriteReg(MSP, 0x20000800)
T11EC 000:503.443 - 0.166ms returns 0
T11EC 000:503.452 JLINK_WriteReg(PSP, 0x20000800)
T11EC 000:503.456 - 0.005ms returns 0
T11EC 000:503.460 JLINK_WriteReg(CFBP, 0x00000000)
T11EC 000:503.464 - 0.005ms returns 0
T11EC 000:503.468 JLINK_SetBPEx(Addr = 0x20000000, Type = 0xFFFFFFF2)
T11EC 000:503.473 - 0.006ms returns 0x0000000C
T11EC 000:503.477 JLINK_Go()
T11EC 000:503.485   CPU_ReadMem(4 bytes @ 0xE0001000)
T11EC 000:503.694   CPU_WriteMem(4 bytes @ 0xE0001000)
T11EC 000:505.471 - 1.998ms
T11EC 000:505.479 JLINK_IsHalted()
T11EC 000:506.594 - 1.117ms returns FALSE
T11EC 000:506.600 JLINK_HasError()
T11EC 000:510.344 JLINK_IsHalted()
T11EC 000:511.945   CPU_ReadMem(2 bytes @ 0x20000000)
T11EC 000:512.138 - 1.795ms returns TRUE
T11EC 000:512.144 JLINK_ReadReg(R15 (PC))
T11EC 000:512.149 - 0.007ms returns 0x20000000
T11EC 000:512.154 JLINK_ClrBPEx(BPHandle = 0x0000000C)
T11EC 000:512.158 - 0.005ms returns 0x00
T11EC 000:512.162 JLINK_ReadReg(R0)
T11EC 000:512.166 - 0.005ms returns 0x00000000
T11EC 000:512.562 JLINK_WriteMem(0x20000290, 0x80 Bytes, ...)
T11EC 000:512.575   Data:  C1 1A 0A AE 0A E0 5F 00 08 AD ED 5B 4F 00 F7 5B ...
T11EC 000:512.588   CPU_WriteMem(128 bytes @ 0x20000290)
T11EC 000:513.165 - 0.609ms returns 0x80
T11EC 000:513.176 JLINK_HasError()
T11EC 000:513.181 JLINK_WriteReg(R0, 0x08000400)
T11EC 000:513.187 - 0.007ms returns 0
T11EC 000:513.191 JLINK_WriteReg(R1, 0x00000080)
T11EC 000:513.195 - 0.005ms returns 0
T11EC 000:513.200 JLINK_WriteReg(R2, 0x20000290)
T11EC 000:513.207 - 0.011ms returns 0
T11EC 000:513.213 JLINK_WriteReg(R3, 0x00000000)
T11EC 000:513.217 - 0.005ms returns 0
T11EC 000:513.221 JLINK_WriteReg(R4, 0x00000000)
T11EC 000:513.225 - 0.005ms returns 0
T11EC 000:513.229 JLINK_WriteReg(R5, 0x00000000)
T11EC 000:513.233 - 0.005ms returns 0
T11EC 000:513.237 JLINK_WriteReg(R6, 0x00000000)
T11EC 000:513.240 - 0.005ms returns 0
T11EC 000:513.244 JLINK_WriteReg(R7, 0x00000000)
T11EC 000:513.248 - 0.005ms returns 0
T11EC 000:513.252 JLINK_WriteReg(R8, 0x00000000)
T11EC 000:513.255 - 0.005ms returns 0
T11EC 000:513.260 JLINK_WriteReg(R9, 0x20000288)
T11EC 000:513.263 - 0.005ms returns 0
T11EC 000:513.267 JLINK_WriteReg(R10, 0x00000000)
T11EC 000:513.271 - 0.005ms returns 0
T11EC 000:513.275 JLINK_WriteReg(R11, 0x00000000)
T11EC 000:513.279 - 0.005ms returns 0
T11EC 000:513.283 JLINK_WriteReg(R12, 0x00000000)
T11EC 000:513.286 - 0.005ms returns 0
T11EC 000:513.290 JLINK_WriteReg(R13 (SP), 0x20000800)
T11EC 000:513.294 - 0.005ms returns 0
T11EC 000:513.299 JLINK_WriteReg(R14, 0x20000001)
T11EC 000:513.303 - 0.005ms returns 0
T11EC 000:513.307 JLINK_WriteReg(R15 (PC), 0x20000180)
T11EC 000:513.310 - 0.005ms returns 0
T11EC 000:513.315 JLINK_WriteReg(XPSR, 0x01000000)
T11EC 000:513.318 - 0.005ms returns 0
T11EC 000:513.322 JLINK_WriteReg(MSP, 0x20000800)
T11EC 000:513.326 - 0.005ms returns 0
T11EC 000:513.330 JLINK_WriteReg(PSP, 0x20000800)
T11EC 000:513.334 - 0.005ms returns 0
T11EC 000:513.338 JLINK_WriteReg(CFBP, 0x00000000)
T11EC 000:513.341 - 0.005ms returns 0
T11EC 000:513.346 JLINK_SetBPEx(Addr = 0x20000000, Type = 0xFFFFFFF2)
T11EC 000:513.350 - 0.006ms returns 0x0000000D
T11EC 000:513.354 JLINK_Go()
T11EC 000:513.362   CPU_ReadMem(4 bytes @ 0xE0001000)
T11EC 000:513.564   CPU_WriteMem(4 bytes @ 0xE0001000)
T11EC 000:515.307 - 1.955ms
T11EC 000:515.313 JLINK_IsHalted()
T11EC 000:516.434 - 1.124ms returns FALSE
T11EC 000:516.446 JLINK_HasError()
T11EC 000:518.344 JLINK_IsHalted()
T11EC 000:519.924   CPU_ReadMem(2 bytes @ 0x20000000)
T11EC 000:520.126 - 1.790ms returns TRUE
T11EC 000:520.140 JLINK_ReadReg(R15 (PC))
T11EC 000:520.147 - 0.009ms returns 0x20000000
T11EC 000:520.152 JLINK_ClrBPEx(BPHandle = 0x0000000D)
T11EC 000:520.157 - 0.006ms returns 0x00
T11EC 000:520.161 JLINK_ReadReg(R0)
T11EC 000:520.166 - 0.005ms returns 0x00000000
T11EC 000:520.773 JLINK_WriteMem(0x20000290, 0x80 Bytes, ...)
T11EC 000:520.787   Data:  4A 00 0E 03 23 03 55 0D 01 24 02 46 2C 49 24 05 ...
T11EC 000:520.801   CPU_WriteMem(128 bytes @ 0x20000290)
T11EC 000:521.392 - 0.621ms returns 0x80
T11EC 000:521.399 JLINK_HasError()
T11EC 000:521.404 JLINK_WriteReg(R0, 0x08000480)
T11EC 000:521.410 - 0.007ms returns 0
T11EC 000:521.414 JLINK_WriteReg(R1, 0x00000080)
T11EC 000:521.418 - 0.005ms returns 0
T11EC 000:521.422 JLINK_WriteReg(R2, 0x20000290)
T11EC 000:521.426 - 0.005ms returns 0
T11EC 000:521.430 JLINK_WriteReg(R3, 0x00000000)
T11EC 000:521.434 - 0.005ms returns 0
T11EC 000:521.438 JLINK_WriteReg(R4, 0x00000000)
T11EC 000:521.442 - 0.005ms returns 0
T11EC 000:521.446 JLINK_WriteReg(R5, 0x00000000)
T11EC 000:521.450 - 0.005ms returns 0
T11EC 000:521.454 JLINK_WriteReg(R6, 0x00000000)
T11EC 000:521.458 - 0.005ms returns 0
T11EC 000:521.462 JLINK_WriteReg(R7, 0x00000000)
T11EC 000:521.466 - 0.005ms returns 0
T11EC 000:521.470 JLINK_WriteReg(R8, 0x00000000)
T11EC 000:521.474 - 0.005ms returns 0
T11EC 000:521.478 JLINK_WriteReg(R9, 0x20000288)
T11EC 000:521.482 - 0.005ms returns 0
T11EC 000:521.486 JLINK_WriteReg(R10, 0x00000000)
T11EC 000:521.490 - 0.005ms returns 0
T11EC 000:521.494 JLINK_WriteReg(R11, 0x00000000)
T11EC 000:521.497 - 0.005ms returns 0
T11EC 000:521.502 JLINK_WriteReg(R12, 0x00000000)
T11EC 000:521.505 - 0.005ms returns 0
T11EC 000:521.510 JLINK_WriteReg(R13 (SP), 0x20000800)
T11EC 000:521.514 - 0.006ms returns 0
T11EC 000:521.518 JLINK_WriteReg(R14, 0x20000001)
T11EC 000:521.522 - 0.005ms returns 0
T11EC 000:521.526 JLINK_WriteReg(R15 (PC), 0x20000180)
T11EC 000:521.530 - 0.005ms returns 0
T11EC 000:521.537 JLINK_WriteReg(XPSR, 0x01000000)
T11EC 000:521.543 - 0.007ms returns 0
T11EC 000:521.547 JLINK_WriteReg(MSP, 0x20000800)
T11EC 000:521.551 - 0.005ms returns 0
T11EC 000:521.555 JLINK_WriteReg(PSP, 0x20000800)
T11EC 000:521.558 - 0.005ms returns 0
T11EC 000:521.563 JLINK_WriteReg(CFBP, 0x00000000)
T11EC 000:521.567 - 0.005ms returns 0
T11EC 000:521.571 JLINK_SetBPEx(Addr = 0x20000000, Type = 0xFFFFFFF2)
T11EC 000:521.575 - 0.006ms returns 0x0000000E
T11EC 000:521.580 JLINK_Go()
T11EC 000:521.587   CPU_ReadMem(4 bytes @ 0xE0001000)
T11EC 000:521.792   CPU_WriteMem(4 bytes @ 0xE0001000)
T11EC 000:523.559 - 1.983ms
T11EC 000:523.567 JLINK_IsHalted()
T11EC 000:524.719 - 1.153ms returns FALSE
T11EC 000:524.725 JLINK_HasError()
T11EC 000:527.344 JLINK_IsHalted()
T11EC 000:529.023   CPU_ReadMem(2 bytes @ 0x20000000)
T11EC 000:529.220 - 1.878ms returns TRUE
T11EC 000:529.231 JLINK_ReadReg(R15 (PC))
T11EC 000:529.236 - 0.007ms returns 0x20000000
T11EC 000:529.241 JLINK_ClrBPEx(BPHandle = 0x0000000E)
T11EC 000:529.245 - 0.005ms returns 0x00
T11EC 000:529.249 JLINK_ReadReg(R0)
T11EC 000:529.253 - 0.005ms returns 0x00000000
T11EC 000:529.589 JLINK_WriteMem(0x20000290, 0x80 Bytes, ...)
T11EC 000:529.598   Data:  19 46 50 40 71 40 08 43 06 D0 60 46 10 1A B3 41 ...
T11EC 000:529.609   CPU_WriteMem(128 bytes @ 0x20000290)
T11EC 000:530.185 - 0.600ms returns 0x80
T11EC 000:530.193 JLINK_HasError()
T11EC 000:530.198 JLINK_WriteReg(R0, 0x08000500)
T11EC 000:530.203 - 0.007ms returns 0
T11EC 000:530.208 JLINK_WriteReg(R1, 0x00000080)
T11EC 000:530.212 - 0.005ms returns 0
T11EC 000:530.216 JLINK_WriteReg(R2, 0x20000290)
T11EC 000:530.220 - 0.005ms returns 0
T11EC 000:530.224 JLINK_WriteReg(R3, 0x00000000)
T11EC 000:530.228 - 0.005ms returns 0
T11EC 000:530.232 JLINK_WriteReg(R4, 0x00000000)
T11EC 000:530.236 - 0.005ms returns 0
